
T2B54 000:428 SEGGER J-Link V5.00k Log File (0002ms, 0280ms total)
T2B54 000:428 DLL Compiled: Jul 31 2015 15:48:52 (0002ms, 0280ms total)
T2B54 000:428 Logging started @ 2019-12-13 21:38 (0002ms, 0280ms total)
T2B54 000:430 JLINK_SetWarnOutHandler(...) (0000ms, 0280ms total)
T2B54 000:430 JLINK_OpenEx(...)
Firmware: J-Link ARM V8 compiled Nov 28 2014 13:44:46
Hardware: V8.00
S/N: 87461523
Feature(s): RDI, FlashBP, FlashDL, JFlash, GDBFull  returns O.K. (0279ms, 0559ms total)
T2B54 000:710 JLINK_SetErrorOutHandler(...) (0000ms, 0559ms total)
T2B54 000:710 JLINK_ExecCommand("ProjectFile = "E:\GD32450i-EVAL\Project\GD32F450I_04_USART_Printf\MDK-ARM\JLinkSettings.ini"", ...)Device "UNSPECIFIED" selected.  returns 0x00 (0004ms, 0563ms total)
T2B54 000:714 JLINK_ExecCommand("Device = GD32F450IG", ...)Device "UNSPECIFIED" selected.  returns 0x00 (0001ms, 0564ms total)
T2B54 000:715 JLINK_ExecCommand("DisableConnectionTimeout", ...)  returns 0x01 (0000ms, 0564ms total)
T2B54 000:715 JLINK_GetHardwareVersion()  returns 0x13880 (0000ms, 0564ms total)
T2B54 000:716 JLINK_GetDLLVersion()  returns 50011 (0000ms, 0565ms total)
T2B54 000:716 JLINK_GetFirmwareString(...) (0000ms, 0565ms total)
T2B54 000:716 JLINK_GetDLLVersion()  returns 50011 (0000ms, 0565ms total)
T2B54 000:716 JLINK_GetCompileDateTime() (0000ms, 0565ms total)
T2B54 000:716 JLINK_GetFirmwareString(...) (0000ms, 0565ms total)
T2B54 000:716 JLINK_GetHardwareVersion()  returns 0x13880 (0000ms, 0565ms total)
T2B54 000:716 JLINK_TIF_Select(JLINKARM_TIF_JTAG)  returns 0x00 (0003ms, 0568ms total)
T2B54 000:719 JLINK_SetSpeed(2000) (0001ms, 0569ms total)
T2B54 000:720 JLINK_GetIdData(...) >0x2F8 JTAG>TotalIRLen = 9, IRPrint = 0x0011 >0x30 JTAG> >0x210 JTAG> >0x70 JTAG> >0x40 JTAG> >0x40 JTAG> >0x40 JTAG> >0x50 JTAG> >0x80 JTAG> >0x40 JTAG> >0x30 JTAG> >0x40 JTAG> >0x40 JTAG> >0x30 JTAG> >0x40 JTAG> >0x50 JTAG>Found Cortex-M4 r0p1, Little endian. -- CPU_WriteMem(4 bytes @ 0xE0002000) -- CPU_ReadMem(4 bytes @ 0xE000EDF0) -- CPU_ReadMem(4 bytes @ 0xE0002000)FPUnit: 6 code (BP) slots and 2 literal slots -- CPU_ReadMem(4 bytes @ 0xE000EDFC)
 -- CPU_ReadMem(4 bytes @ 0xE0001000) -- CPU_WriteMem(4 bytes @ 0xE0001000) -- CPU_ReadMem(4 bytes @ 0xE000ED88) -- CPU_WriteMem(4 bytes @ 0xE000ED88) -- CPU_ReadMem(4 bytes @ 0xE000ED88) -- CPU_WriteMem(4 bytes @ 0xE000ED88)CoreSight components:ROMTbl 0 @ E00FF000 -- CPU_ReadMem(16 bytes @ 0xE00FF000) -- CPU_ReadMem(16 bytes @ 0xE000EFF0) -- CPU_ReadMem(16 bytes @ 0xE000EFE0)ROMTbl 0 [0]: FFF0F000, CID: B105E00D, PID: 000BB00C SCS -- CPU_ReadMem(16 bytes @ 0xE0001FF0)
 -- CPU_ReadMem(16 bytes @ 0xE0001FE0)ROMTbl 0 [1]: FFF02000, CID: B105E00D, PID: 003BB002 DWT -- CPU_ReadMem(16 bytes @ 0xE0002FF0) -- CPU_ReadMem(16 bytes @ 0xE0002FE0)ROMTbl 0 [2]: FFF03000, CID: B105E00D, PID: 002BB003 FPB -- CPU_ReadMem(16 bytes @ 0xE0000FF0) -- CPU_ReadMem(16 bytes @ 0xE0000FE0)ROMTbl 0 [3]: FFF01000, CID: B105E00D, PID: 003BB001 ITM -- CPU_ReadMem(16 bytes @ 0xE00FF010) -- CPU_ReadMem(16 bytes @ 0xE0040FF0) -- CPU_ReadMem(16 bytes @ 0xE0040FE0)
ROMTbl 0 [4]: FFF41000, CID: B105900D, PID: 000BB9A1 TPIU -- CPU_ReadMem(16 bytes @ 0xE0041FF0) -- CPU_ReadMem(16 bytes @ 0xE0041FE0)ROMTbl 0 [5]: FFF42000, CID: 00000000, PID: 00000000 ??? ScanLen=9 NumDevices=2 aId[0]=0x4BA00477 aIrRead[0]=0 aScanLen[0]=0 aScanRead[0]=0 (0037ms, 0606ms total)
T2B54 000:757 JLINK_JTAG_GetDeviceID(DeviceIndex = 0)  returns 0x4BA00477 (0000ms, 0606ms total)
T2B54 000:757 JLINK_JTAG_GetDeviceInfo(DeviceIndex = 0)  returns 0x00 (0000ms, 0606ms total)
T2B54 000:757 JLINK_JTAG_GetDeviceID(DeviceIndex = 1)  returns 0x790007A3 (0000ms, 0606ms total)
T2B54 000:757 JLINK_JTAG_GetDeviceInfo(DeviceIndex = 1)  returns 0x01 (0000ms, 0606ms total)
T2B54 000:757 JLINK_GetDeviceFamily()  returns 14 (0000ms, 0606ms total)
T2B54 000:757 JLINK_ReadMem (0xE00FFFF0, 0x0010 Bytes, ...) -- CPU is running -- CPU_ReadMem(16 bytes @ 0xE00FFFF0) - Data: 0D 00 00 00 10 00 00 00 05 00 00 00 B1 00 00 00  returns 0x00 (0001ms, 0607ms total)
T2B54 000:758 JLINK_ReadMem (0xE00FFFD0, 0x0020 Bytes, ...) -- CPU is running -- CPU_ReadMem(32 bytes @ 0xE00FFFD0) - Data: 07 00 00 00 00 00 00 00 00 00 00 00 00 00 00 00 ...  returns 0x00 (0002ms, 0609ms total)
T2B54 000:760 JLINK_ReadMem (0xE00FF000, 0x0018 Bytes, ...) -- CPU is running -- CPU_ReadMem(24 bytes @ 0xE00FF000) - Data: 03 F0 F0 FF 03 20 F0 FF 03 30 F0 FF 03 10 F0 FF ...  returns 0x00 (0001ms, 0610ms total)
T2B54 000:761 JLINK_ReadMemU32(0xE000ED00, 0x0001 Items, ...) -- CPU is running -- CPU_ReadMem(4 bytes @ 0xE000ED00) - Data: 41 C2 0F 41  returns 0x01 (0000ms, 0610ms total)
T2B54 000:761 JLINK_ReadMemU32(0xE000EF40, 0x0001 Items, ...) -- CPU is running -- CPU_ReadMem(4 bytes @ 0xE000EF40) - Data: 21 00 11 10  returns 0x01 (0001ms, 0611ms total)
T2B54 000:762 JLINK_ReadMemU32(0xE000EF44, 0x0001 Items, ...) -- CPU is running -- CPU_ReadMem(4 bytes @ 0xE000EF44) - Data: 11 00 00 11  returns 0x01 (0001ms, 0612ms total)
T2B54 000:763 JLINK_SetResetType(JLINKARM_RESET_TYPE_NORMAL)  returns JLINKARM_RESET_TYPE_NORMAL (0000ms, 0612ms total)
T2B54 000:763 JLINK_Reset() -- CPU is running -- CPU_WriteMem(4 bytes @ 0xE000EDF0) -- CPU is running -- CPU_WriteMem(4 bytes @ 0xE000EDFC) -- CPU is running -- CPU_WriteMem(4 bytes @ 0xE000ED0C) -- CPU is running -- CPU_ReadMem(4 bytes @ 0xE000EDF0) -- CPU is running -- CPU_ReadMem(4 bytes @ 0xE000EDF0) -- CPU is running -- CPU_WriteMem(4 bytes @ 0xE000EDF0) -- CPU is running -- CPU_WriteMem(4 bytes @ 0xE000EDFC) -- CPU is running -- CPU_ReadMem(4 bytes @ 0xE000EDF0) >0x80 JTAG> >0x40 JTAG> >0x30 JTAG>
 >0x40 JTAG> >0x50 JTAG> >0x40 JTAG> -- CPU_WriteMem(4 bytes @ 0xE000EDFC) -- CPU_WriteMem(4 bytes @ 0xE0001028) -- CPU_WriteMem(4 bytes @ 0xE0001038) -- CPU_WriteMem(4 bytes @ 0xE0001048) -- CPU_WriteMem(4 bytes @ 0xE0001058) -- CPU_WriteMem(4 bytes @ 0xE0002000) -- CPU_ReadMem(4 bytes @ 0xE000EDFC) -- CPU_ReadMem(4 bytes @ 0xE0001000) (0033ms, 0645ms total)
T2B54 000:796 JLINK_ReadReg(R15 (PC))  returns 0x080001C0 (0000ms, 0645ms total)
T2B54 000:796 JLINK_ReadReg(XPSR)  returns 0x01000000 (0000ms, 0645ms total)
T2B54 000:796 JLINK_Halt()  returns 0x00 (0000ms, 0645ms total)
T2B54 000:796 JLINK_IsHalted()  returns TRUE (0000ms, 0645ms total)
T2B54 000:796 JLINK_ReadMemU32(0xE000EDF0, 0x0001 Items, ...) -- CPU_ReadMem(4 bytes @ 0xE000EDF0) - Data: 03 00 03 00  returns 0x01 (0001ms, 0646ms total)
T2B54 000:797 JLINK_WriteU32(0xE000EDF0, 0xA05F0003) -- CPU_WriteMem(4 bytes @ 0xE000EDF0)  returns 0x00 (0002ms, 0648ms total)
T2B54 000:799 JLINK_WriteU32(0xE000EDFC, 0x01000000) -- CPU_WriteMem(4 bytes @ 0xE000EDFC)  returns 0x00 (0001ms, 0649ms total)
T2B54 000:800 JLINK_GetHWStatus(...)  returns 0x00 (0000ms, 0649ms total)
T2B54 000:800 JLINK_GetNumBPUnits(Type = 0xFFFFFF00)  returns 0x06 (0000ms, 0649ms total)
T2B54 000:800 JLINK_GetNumBPUnits(Type = 0xF0)  returns 0x2000 (0000ms, 0649ms total)
T2B54 000:800 JLINK_GetNumWPUnits()  returns 0x04 (0000ms, 0649ms total)
T2B54 000:800 JLINK_GetSpeed()  returns 0x7D0 (0000ms, 0649ms total)
T2B54 000:800 JLINK_ReadMemU32(0xE000E004, 0x0001 Items, ...) -- CPU_ReadMem(4 bytes @ 0xE000E004) - Data: 02 00 00 00  returns 0x01 (0001ms, 0650ms total)
T2B54 000:801 JLINK_ReadMemU32(0xE000E004, 0x0001 Items, ...) -- CPU_ReadMem(4 bytes @ 0xE000E004) - Data: 02 00 00 00  returns 0x01 (0001ms, 0651ms total)
T2B54 000:802 JLINK_WriteMem(0xE0001000, 0x001C Bytes, ...) - Data: 01 00 00 00 00 00 00 00 00 00 00 00 00 00 00 00 ... -- CPU_WriteMem(28 bytes @ 0xE0001000)  returns 0x1C (0002ms, 0653ms total)
T2B54 000:804 JLINK_ReadMem (0xE0001000, 0x001C Bytes, ...) -- CPU_ReadMem(28 bytes @ 0xE0001000) - Data: 01 00 00 40 00 00 00 00 00 00 00 00 00 00 00 00 ...  returns 0x00 (0001ms, 0654ms total)
T2B54 000:805 JLINK_ReadReg(R15 (PC))  returns 0x080001C0 (0000ms, 0654ms total)
T2B54 000:805 JLINK_ReadReg(XPSR)  returns 0x01000000 (0000ms, 0654ms total)
T2B54 000:929 JLINK_SetResetType(JLINKARM_RESET_TYPE_NORMAL)  returns JLINKARM_RESET_TYPE_NORMAL (0000ms, 0654ms total)
T2B54 000:929 JLINK_Reset() -- CPU_WriteMem(4 bytes @ 0xE000EDF0) -- CPU_WriteMem(4 bytes @ 0xE000EDFC) -- CPU_WriteMem(4 bytes @ 0xE000ED0C) -- CPU_ReadMem(4 bytes @ 0xE000EDF0) -- CPU_ReadMem(4 bytes @ 0xE000EDF0) -- CPU_WriteMem(4 bytes @ 0xE000EDF0) -- CPU_WriteMem(4 bytes @ 0xE000EDFC) -- CPU is running -- CPU_ReadMem(4 bytes @ 0xE000EDF0) >0x80 JTAG> >0x40 JTAG> >0x30 JTAG> >0x40 JTAG> >0x50 JTAG> >0x40 JTAG> -- CPU_WriteMem(4 bytes @ 0xE000EDFC) -- CPU_WriteMem(4 bytes @ 0xE0001028)
 -- CPU_WriteMem(4 bytes @ 0xE0001038) -- CPU_WriteMem(4 bytes @ 0xE0001048) -- CPU_WriteMem(4 bytes @ 0xE0001058) -- CPU_WriteMem(4 bytes @ 0xE0002000) -- CPU_ReadMem(4 bytes @ 0xE000EDFC) -- CPU_ReadMem(4 bytes @ 0xE0001000) (0031ms, 0685ms total)
T2B54 000:960 JLINK_ReadReg(R15 (PC))  returns 0x080001C0 (0000ms, 0685ms total)
T2B54 000:960 JLINK_ReadReg(XPSR)  returns 0x01000000 (0000ms, 0685ms total)
T2B54 000:960 JLINK_ReadMem (0x080001C0, 0x003C Bytes, ...) -- CPU_ReadMem(60 bytes @ 0x080001C0) - Data: 06 48 80 47 06 48 00 47 FE E7 FE E7 FE E7 FE E7 ...  returns 0x00 (0002ms, 0687ms total)
T26BC 004:901 JLINK_SetBPEx(Addr = 0x08001668, Type = 0xFFFFFFF2)  returns 0x00000001 (0000ms, 0687ms total)
T26BC 004:901 JLINK_Go() -- CPU_ReadMem(4 bytes @ 0xE0001000) -- CPU_WriteMem(4 bytes @ 0xE0002008) -- CPU_WriteMem(4 bytes @ 0xE000200C) -- CPU_WriteMem(4 bytes @ 0xE0002010) -- CPU_WriteMem(4 bytes @ 0xE0002014) -- CPU_WriteMem(4 bytes @ 0xE0002018) -- CPU_WriteMem(4 bytes @ 0xE000201C) -- CPU_WriteMem(4 bytes @ 0xE0001004) (0005ms, 0692ms total)
T26BC 005:007 JLINK_IsHalted()  returns TRUE (0004ms, 0696ms total)
T26BC 005:011 JLINK_Halt()  returns 0x00 (0000ms, 0692ms total)
T26BC 005:011 JLINK_IsHalted()  returns TRUE (0000ms, 0692ms total)
T26BC 005:011 JLINK_IsHalted()  returns TRUE (0000ms, 0692ms total)
T26BC 005:011 JLINK_IsHalted()  returns TRUE (0001ms, 0693ms total)
T26BC 005:012 JLINK_ReadReg(R15 (PC))  returns 0x08001668 (0000ms, 0692ms total)
T26BC 005:012 JLINK_ReadReg(XPSR)  returns 0x61000000 (0000ms, 0692ms total)
T26BC 005:012 JLINK_ClrBPEx(BPHandle = 0x00000001)  returns 0x00 (0000ms, 0692ms total)
T26BC 005:012 JLINK_ReadMemU32(0xE000ED30, 0x0001 Items, ...) -- CPU_ReadMem(4 bytes @ 0xE000ED30) - Data: 03 00 00 00  returns 0x01 (0000ms, 0692ms total)
T26BC 005:012 JLINK_ReadMemU32(0xE0001028, 0x0001 Items, ...) -- CPU_ReadMem(4 bytes @ 0xE0001028) - Data: 00 00 00 00  returns 0x01 (0001ms, 0693ms total)
T26BC 005:013 JLINK_ReadMemU32(0xE0001038, 0x0001 Items, ...) -- CPU_ReadMem(4 bytes @ 0xE0001038) - Data: 00 02 00 00  returns 0x01 (0001ms, 0694ms total)
T26BC 005:014 JLINK_ReadMemU32(0xE0001048, 0x0001 Items, ...) -- CPU_ReadMem(4 bytes @ 0xE0001048) - Data: 00 00 00 00  returns 0x01 (0001ms, 0695ms total)
T26BC 005:015 JLINK_ReadMemU32(0xE0001058, 0x0001 Items, ...) -- CPU_ReadMem(4 bytes @ 0xE0001058) - Data: 00 00 00 00  returns 0x01 (0000ms, 0695ms total)
T26BC 005:015 JLINK_ReadReg(R0)  returns 0x08001669 (0001ms, 0696ms total)
T26BC 005:016 JLINK_ReadReg(R1)  returns 0x200006D8 (0000ms, 0696ms total)
T26BC 005:016 JLINK_ReadReg(R2)  returns 0x00000000 (0000ms, 0696ms total)
T26BC 005:016 JLINK_ReadReg(R3)  returns 0x08000F35 (0000ms, 0696ms total)
T26BC 005:016 JLINK_ReadReg(R4)  returns 0x080034DC (0000ms, 0696ms total)
T26BC 005:016 JLINK_ReadReg(R5)  returns 0x080034DC (0000ms, 0696ms total)
T26BC 005:016 JLINK_ReadReg(R6)  returns 0x00000000 (0000ms, 0696ms total)
T26BC 005:016 JLINK_ReadReg(R7)  returns 0x00000000 (0000ms, 0696ms total)
T26BC 005:016 JLINK_ReadReg(R8)  returns 0x00000000 (0000ms, 0696ms total)
T26BC 005:016 JLINK_ReadReg(R9)  returns 0x200001CC (0000ms, 0696ms total)
T26BC 005:016 JLINK_ReadReg(R10)  returns 0x00000000 (0000ms, 0696ms total)
T26BC 005:016 JLINK_ReadReg(R11)  returns 0x00000000 (0000ms, 0696ms total)
T26BC 005:016 JLINK_ReadReg(R12)  returns 0x00000000 (0000ms, 0696ms total)
T26BC 005:016 JLINK_ReadReg(R13 (SP))  returns 0x200006D8 (0000ms, 0696ms total)
T26BC 005:016 JLINK_ReadReg(R14)  returns 0x080003D5 (0000ms, 0696ms total)
T26BC 005:016 JLINK_ReadReg(R15 (PC))  returns 0x08001668 (0000ms, 0696ms total)
T26BC 005:016 JLINK_ReadReg(XPSR)  returns 0x61000000 (0000ms, 0696ms total)
T26BC 005:016 JLINK_ReadReg(MSP)  returns 0x200006D8 (0000ms, 0696ms total)
T26BC 005:016 JLINK_ReadReg(PSP)  returns 0x20001000 (0000ms, 0696ms total)
T26BC 005:016 JLINK_ReadReg(CFBP)  returns 0x00000000 (0000ms, 0696ms total)
T26BC 005:016 JLINK_ReadReg(FPSCR)  returns 0x00000000 (0008ms, 0704ms total)
T26BC 005:024 JLINK_ReadReg(FPS0)  returns 0xAF0BD180 (0000ms, 0704ms total)
T26BC 005:024 JLINK_ReadReg(FPS1)  returns 0x44CA0C5C (0000ms, 0704ms total)
T26BC 005:024 JLINK_ReadReg(FPS2)  returns 0xC146BB56 (0000ms, 0704ms total)
T26BC 005:024 JLINK_ReadReg(FPS3)  returns 0x3ABDD5D4 (0000ms, 0704ms total)
T26BC 005:024 JLINK_ReadReg(FPS4)  returns 0xA862833A (0000ms, 0704ms total)
T26BC 005:024 JLINK_ReadReg(FPS5)  returns 0xE99C4132 (0000ms, 0704ms total)
T26BC 005:024 JLINK_ReadReg(FPS6)  returns 0x4CA21A57 (0000ms, 0704ms total)
T26BC 005:024 JLINK_ReadReg(FPS7)  returns 0x303A702F (0000ms, 0704ms total)
T26BC 005:024 JLINK_ReadReg(FPS8)  returns 0x5A8880B0 (0000ms, 0704ms total)
T26BC 005:024 JLINK_ReadReg(FPS9)  returns 0x004436D9 (0000ms, 0704ms total)
T26BC 005:024 JLINK_ReadReg(FPS10)  returns 0x0E411D5F (0000ms, 0704ms total)
T26BC 005:024 JLINK_ReadReg(FPS11)  returns 0x2700D570 (0000ms, 0704ms total)
T26BC 005:024 JLINK_ReadReg(FPS12)  returns 0xB63BB06F (0000ms, 0704ms total)
T26BC 005:024 JLINK_ReadReg(FPS13)  returns 0x526F7343 (0000ms, 0704ms total)
T26BC 005:024 JLINK_ReadReg(FPS14)  returns 0x5545BD9F (0000ms, 0704ms total)
T26BC 005:024 JLINK_ReadReg(FPS15)  returns 0x7B4FB7AA (0000ms, 0704ms total)
T26BC 005:024 JLINK_ReadReg(FPS16)  returns 0x25346FDD (0000ms, 0704ms total)
T26BC 005:024 JLINK_ReadReg(FPS17)  returns 0x4A5ACE68 (0001ms, 0705ms total)
T26BC 005:025 JLINK_ReadReg(FPS18)  returns 0x79BBBE5E (0000ms, 0705ms total)
T26BC 005:025 JLINK_ReadReg(FPS19)  returns 0x057F7280 (0000ms, 0705ms total)
T26BC 005:025 JLINK_ReadReg(FPS20)  returns 0x9C1BA4FC (0000ms, 0705ms total)
T26BC 005:025 JLINK_ReadReg(FPS31)  returns 0x18AEB0A0 (0000ms, 0705ms total)
T26BC 005:025 JLINK_ReadReg(FPS7)  returns 0x303A702F (0000ms, 0705ms total)
T26BC 005:025 JLINK_ReadReg(FPS8)  returns 0x5A8880B0 (0000ms, 0705ms total)
T26BC 005:025 JLINK_ReadReg(FPS9)  returns 0x004436D9 (0000ms, 0705ms total)
T26BC 005:025 JLINK_ReadReg(FPS10)  returns 0x0E411D5F (0000ms, 0705ms total)
T26BC 005:025 JLINK_ReadReg(FPS11)  returns 0x2700D570 (0000ms, 0705ms total)
T26BC 005:025 JLINK_ReadReg(FPS12)  returns 0xB63BB06F (0000ms, 0705ms total)
T26BC 005:025 JLINK_ReadReg(FPS13)  returns 0x526F7343 (0000ms, 0705ms total)
T26BC 005:025 JLINK_ReadReg(FPS14)  returns 0x5545BD9F (0000ms, 0705ms total)
T26BC 005:025 JLINK_ReadReg(FPS15)  returns 0x7B4FB7AA (0000ms, 0705ms total)
T26BC 005:025 JLINK_ReadReg(FPS16)  returns 0x25346FDD (0000ms, 0705ms total)
T2B54 005:034 JLINK_ReadMem (0x00000000, 0x0004 Bytes, ...) -- CPU_ReadMem(4 bytes @ 0x00000000) - Data: D8 06 00 20  returns 0x00 (0000ms, 0705ms total)
T2B54 005:035 JLINK_ReadMemU32(0xE0001004, 0x0001 Items, ...) -- CPU_ReadMem(4 bytes @ 0xE0001004) - Data: 89 2F 00 00  returns 0x01 (0001ms, 0706ms total)
T2B54 005:036 JLINK_ReadMem (0x08001668, 0x003C Bytes, ...) -- CPU_ReadMem(128 bytes @ 0x08001640) -- Updating DA cache (128 bytes @ 0x08001640) -- Read from DA cache (60 bytes @ 0x08001668) - Data: 10 B5 FE F7 E7 FE 0E A0 FF F7 34 FC 00 24 FE F7 ...  returns 0x00 (0003ms, 0709ms total)
T26BC 017:243 JLINK_Step() -- Read from DA cache (2 bytes @ 0x08001668) -- Not simulated -- CPU_WriteMem(4 bytes @ 0xE0002008)  returns 0x00 (0008ms, 0717ms total)
T26BC 017:251 JLINK_ReadReg(R15 (PC))  returns 0x0800166A (0000ms, 0717ms total)
T26BC 017:251 JLINK_ReadReg(XPSR)  returns 0x61000000 (0000ms, 0717ms total)
T26BC 017:251 JLINK_ReadReg(R0)  returns 0x08001669 (0000ms, 0717ms total)
T26BC 017:251 JLINK_ReadReg(R1)  returns 0x200006D8 (0000ms, 0717ms total)
T26BC 017:251 JLINK_ReadReg(R2)  returns 0x00000000 (0000ms, 0717ms total)
T26BC 017:251 JLINK_ReadReg(R3)  returns 0x08000F35 (0000ms, 0717ms total)
T26BC 017:251 JLINK_ReadReg(R4)  returns 0x080034DC (0000ms, 0717ms total)
T26BC 017:251 JLINK_ReadReg(R5)  returns 0x080034DC (0000ms, 0717ms total)
T26BC 017:251 JLINK_ReadReg(R6)  returns 0x00000000 (0000ms, 0717ms total)
T26BC 017:251 JLINK_ReadReg(R7)  returns 0x00000000 (0000ms, 0717ms total)
T26BC 017:251 JLINK_ReadReg(R8)  returns 0x00000000 (0000ms, 0717ms total)
T26BC 017:251 JLINK_ReadReg(R9)  returns 0x200001CC (0000ms, 0717ms total)
T26BC 017:251 JLINK_ReadReg(R10)  returns 0x00000000 (0000ms, 0717ms total)
T26BC 017:251 JLINK_ReadReg(R11)  returns 0x00000000 (0000ms, 0717ms total)
T26BC 017:251 JLINK_ReadReg(R12)  returns 0x00000000 (0000ms, 0717ms total)
T26BC 017:251 JLINK_ReadReg(R13 (SP))  returns 0x200006D0 (0000ms, 0717ms total)
T26BC 017:251 JLINK_ReadReg(R14)  returns 0x080003D5 (0000ms, 0717ms total)
T26BC 017:251 JLINK_ReadReg(R15 (PC))  returns 0x0800166A (0000ms, 0717ms total)
T26BC 017:251 JLINK_ReadReg(XPSR)  returns 0x61000000 (0000ms, 0717ms total)
T26BC 017:251 JLINK_ReadReg(MSP)  returns 0x200006D0 (0000ms, 0717ms total)
T26BC 017:251 JLINK_ReadReg(PSP)  returns 0x20001000 (0000ms, 0717ms total)
T26BC 017:251 JLINK_ReadReg(CFBP)  returns 0x00000000 (0001ms, 0718ms total)
T26BC 017:252 JLINK_ReadReg(FPSCR)  returns 0x00000000 (0007ms, 0725ms total)
T26BC 017:259 JLINK_ReadReg(FPS0)  returns 0xAF0BD180 (0000ms, 0725ms total)
T26BC 017:259 JLINK_ReadReg(FPS1)  returns 0x44CA0C5C (0000ms, 0725ms total)
T26BC 017:259 JLINK_ReadReg(FPS2)  returns 0xC146BB56 (0000ms, 0725ms total)
T26BC 017:259 JLINK_ReadReg(FPS3)  returns 0x3ABDD5D4 (0000ms, 0725ms total)
T26BC 017:259 JLINK_ReadReg(FPS4)  returns 0xA862833A (0000ms, 0725ms total)
T26BC 017:259 JLINK_ReadReg(FPS5)  returns 0xE99C4132 (0000ms, 0725ms total)
T26BC 017:259 JLINK_ReadReg(FPS6)  returns 0x4CA21A57 (0000ms, 0725ms total)
T26BC 017:259 JLINK_ReadReg(FPS7)  returns 0x303A702F (0000ms, 0725ms total)
T26BC 017:259 JLINK_ReadReg(FPS8)  returns 0x5A8880B0 (0000ms, 0725ms total)
T26BC 017:259 JLINK_ReadReg(FPS9)  returns 0x004436D9 (0000ms, 0725ms total)
T26BC 017:259 JLINK_ReadReg(FPS10)  returns 0x0E411D5F (0001ms, 0726ms total)
T26BC 017:260 JLINK_ReadReg(FPS11)  returns 0x2700D570 (0000ms, 0726ms total)
T26BC 017:260 JLINK_ReadReg(FPS12)  returns 0xB63BB06F (0000ms, 0726ms total)
T26BC 017:260 JLINK_ReadReg(FPS13)  returns 0x526F7343 (0000ms, 0726ms total)
T26BC 017:260 JLINK_ReadReg(FPS14)  returns 0x5545BD9F (0000ms, 0726ms total)
T26BC 017:260 JLINK_ReadReg(FPS15)  returns 0x7B4FB7AA (0000ms, 0726ms total)
T26BC 017:260 JLINK_ReadReg(FPS16)  returns 0x25346FDD (0000ms, 0726ms total)
T26BC 017:260 JLINK_ReadReg(FPS17)  returns 0x4A5ACE68 (0000ms, 0726ms total)
T26BC 017:260 JLINK_ReadReg(FPS18)  returns 0x79BBBE5E (0000ms, 0726ms total)
T26BC 017:260 JLINK_ReadReg(FPS19)  returns 0x057F7280 (0000ms, 0726ms total)
T26BC 017:260 JLINK_ReadReg(FPS20)  returns 0x9C1BA4FC (0000ms, 0726ms total)
T26BC 017:260 JLINK_ReadReg(FPS31)  returns 0x18AEB0A0 (0000ms, 0726ms total)
T26BC 017:260 JLINK_ReadReg(FPS7)  returns 0x303A702F (0000ms, 0726ms total)
T26BC 017:260 JLINK_ReadReg(FPS8)  returns 0x5A8880B0 (0000ms, 0726ms total)
T26BC 017:260 JLINK_ReadReg(FPS9)  returns 0x004436D9 (0000ms, 0726ms total)
T26BC 017:260 JLINK_ReadReg(FPS10)  returns 0x0E411D5F (0000ms, 0726ms total)
T26BC 017:260 JLINK_ReadReg(FPS11)  returns 0x2700D570 (0000ms, 0726ms total)
T26BC 017:260 JLINK_ReadReg(FPS12)  returns 0xB63BB06F (0000ms, 0726ms total)
T26BC 017:260 JLINK_ReadReg(FPS13)  returns 0x526F7343 (0000ms, 0726ms total)
T26BC 017:260 JLINK_ReadReg(FPS14)  returns 0x5545BD9F (0000ms, 0726ms total)
T26BC 017:260 JLINK_ReadReg(FPS15)  returns 0x7B4FB7AA (0000ms, 0726ms total)
T26BC 017:260 JLINK_ReadReg(FPS16)  returns 0x25346FDD (0000ms, 0726ms total)
T2B54 017:260 JLINK_ReadMem (0x200006D4, 0x0004 Bytes, ...) -- CPU_ReadMem(4 bytes @ 0x200006D4) - Data: D5 03 00 08  returns 0x00 (0001ms, 0727ms total)
T2B54 017:261 JLINK_ReadMem (0x00000000, 0x0004 Bytes, ...) -- CPU_ReadMem(4 bytes @ 0x00000000) - Data: D8 06 00 20  returns 0x00 (0001ms, 0728ms total)
T2B54 017:263 JLINK_ReadMemU32(0xE0001004, 0x0001 Items, ...) -- CPU_ReadMem(4 bytes @ 0xE0001004) - Data: 8C 2F 00 00  returns 0x01 (0000ms, 0728ms total)
T2B54 017:263 JLINK_ReadMem (0x0800166A, 0x0002 Bytes, ...) -- CPU_ReadMem(64 bytes @ 0x08001640) -- Updating DA cache (64 bytes @ 0x08001640) -- Read from DA cache (2 bytes @ 0x0800166A) - Data: FE F7  returns 0x00 (0002ms, 0730ms total)
T2B54 017:265 JLINK_ReadMem (0x0800166C, 0x003C Bytes, ...) -- CPU_ReadMem(64 bytes @ 0x08001680) -- Updating DA cache (64 bytes @ 0x08001680) -- Read from DA cache (60 bytes @ 0x0800166C) - Data: E7 FE 0E A0 FF F7 34 FC 00 24 FE F7 FB FE 04 46 ...  returns 0x00 (0001ms, 0731ms total)
T26BC 019:703 JLINK_Go() -- CPU_ReadMem(4 bytes @ 0xE0001000) (0002ms, 0733ms total)
T26BC 019:806 JLINK_IsHalted()  returns FALSE (0000ms, 0733ms total)
T26BC 019:907 JLINK_IsHalted()  returns FALSE (0001ms, 0734ms total)
T26BC 020:009 JLINK_IsHalted()  returns FALSE (0001ms, 0734ms total)
T26BC 020:111 JLINK_IsHalted()  returns FALSE (0001ms, 0734ms total)
T26BC 020:213 JLINK_IsHalted()  returns FALSE (0000ms, 0733ms total)
T26BC 020:314 JLINK_IsHalted()  returns FALSE (0001ms, 0734ms total)
T26BC 020:416 JLINK_IsHalted()  returns FALSE (0001ms, 0734ms total)
T26BC 020:517 JLINK_IsHalted()  returns FALSE (0000ms, 0733ms total)
T26BC 020:619 JLINK_IsHalted()  returns FALSE (0001ms, 0734ms total)
T26BC 020:720 JLINK_IsHalted()  returns FALSE (0001ms, 0734ms total)
T26BC 020:823 JLINK_IsHalted()  returns FALSE (0001ms, 0734ms total)
T26BC 020:925 JLINK_IsHalted()  returns FALSE (0001ms, 0734ms total)
T26BC 021:027 JLINK_IsHalted()  returns FALSE (0000ms, 0733ms total)
T26BC 021:128 JLINK_IsHalted()  returns FALSE (0000ms, 0733ms total)
T26BC 021:229 JLINK_IsHalted()  returns FALSE (0000ms, 0733ms total)
T26BC 021:331 JLINK_IsHalted()  returns FALSE (0000ms, 0733ms total)
T26BC 021:432 JLINK_Halt()  returns 0x00 (0005ms, 0738ms total)
T26BC 021:437 JLINK_IsHalted()  returns TRUE (0000ms, 0738ms total)
T26BC 021:437 JLINK_IsHalted()  returns TRUE (0000ms, 0738ms total)
T26BC 021:437 JLINK_IsHalted()  returns TRUE (0000ms, 0738ms total)
T26BC 021:437 JLINK_ReadReg(R15 (PC))  returns 0x08001BA2 (0000ms, 0738ms total)
T26BC 021:437 JLINK_ReadReg(XPSR)  returns 0x01000000 (0000ms, 0738ms total)
T26BC 021:437 JLINK_ReadMemU32(0xE000ED30, 0x0001 Items, ...) -- CPU_ReadMem(4 bytes @ 0xE000ED30) - Data: 01 00 00 00  returns 0x01 (0001ms, 0739ms total)
T26BC 021:438 JLINK_ReadMemU32(0xE0001028, 0x0001 Items, ...) -- CPU_ReadMem(4 bytes @ 0xE0001028) - Data: 00 00 00 00  returns 0x01 (0001ms, 0740ms total)
T26BC 021:439 JLINK_ReadMemU32(0xE0001038, 0x0001 Items, ...) -- CPU_ReadMem(4 bytes @ 0xE0001038) - Data: 00 02 00 00  returns 0x01 (0000ms, 0740ms total)
T26BC 021:439 JLINK_ReadMemU32(0xE0001048, 0x0001 Items, ...) -- CPU_ReadMem(4 bytes @ 0xE0001048) - Data: 00 00 00 00  returns 0x01 (0002ms, 0742ms total)
T26BC 021:441 JLINK_ReadMemU32(0xE0001058, 0x0001 Items, ...) -- CPU_ReadMem(4 bytes @ 0xE0001058) - Data: 00 00 00 00  returns 0x01 (0000ms, 0742ms total)
T26BC 021:441 JLINK_ReadReg(R0)  returns 0x00000000 (0000ms, 0742ms total)
T26BC 021:442 JLINK_ReadReg(R1)  returns 0x08001BA1 (0000ms, 0742ms total)
T26BC 021:442 JLINK_ReadReg(R2)  returns 0x02020202 (0000ms, 0742ms total)
T26BC 021:442 JLINK_ReadReg(R3)  returns 0x03030303 (0000ms, 0742ms total)
T26BC 021:442 JLINK_ReadReg(R4)  returns 0x200010EC (0000ms, 0742ms total)
T26BC 021:442 JLINK_ReadReg(R5)  returns 0x00000001 (0000ms, 0742ms total)
T26BC 021:442 JLINK_ReadReg(R6)  returns 0x06060606 (0000ms, 0742ms total)
T26BC 021:442 JLINK_ReadReg(R7)  returns 0x07070707 (0000ms, 0742ms total)
T26BC 021:442 JLINK_ReadReg(R8)  returns 0x08080808 (0000ms, 0742ms total)
T26BC 021:442 JLINK_ReadReg(R9)  returns 0x09090909 (0000ms, 0742ms total)
T26BC 021:442 JLINK_ReadReg(R10)  returns 0x10101010 (0000ms, 0742ms total)
T26BC 021:442 JLINK_ReadReg(R11)  returns 0x11111111 (0000ms, 0742ms total)
T26BC 021:442 JLINK_ReadReg(R12)  returns 0x12121212 (0000ms, 0742ms total)
T26BC 021:442 JLINK_ReadReg(R13 (SP))  returns 0x20002718 (0000ms, 0742ms total)
T26BC 021:442 JLINK_ReadReg(R14)  returns 0x080028D7 (0000ms, 0742ms total)
T26BC 021:442 JLINK_ReadReg(R15 (PC))  returns 0x08001BA2 (0000ms, 0742ms total)
T26BC 021:442 JLINK_ReadReg(XPSR)  returns 0x01000000 (0000ms, 0742ms total)
T26BC 021:442 JLINK_ReadReg(MSP)  returns 0x200006C8 (0000ms, 0742ms total)
T26BC 021:442 JLINK_ReadReg(PSP)  returns 0x20002718 (0000ms, 0742ms total)
T26BC 021:442 JLINK_ReadReg(CFBP)  returns 0x02000000 (0000ms, 0742ms total)
T26BC 021:442 JLINK_ReadReg(FPSCR)  returns 0x00000000 (0008ms, 0750ms total)
T26BC 021:450 JLINK_ReadReg(FPS0)  returns 0xAF0BD180 (0000ms, 0750ms total)
T26BC 021:450 JLINK_ReadReg(FPS1)  returns 0x44CA0C5C (0000ms, 0750ms total)
T26BC 021:450 JLINK_ReadReg(FPS2)  returns 0xC146BB56 (0000ms, 0750ms total)
T26BC 021:450 JLINK_ReadReg(FPS3)  returns 0x3ABDD5D4 (0000ms, 0750ms total)
T26BC 021:450 JLINK_ReadReg(FPS4)  returns 0xA862833A (0000ms, 0750ms total)
T26BC 021:450 JLINK_ReadReg(FPS5)  returns 0xE99C4132 (0000ms, 0750ms total)
T26BC 021:450 JLINK_ReadReg(FPS6)  returns 0x4CA21A57 (0000ms, 0750ms total)
T26BC 021:450 JLINK_ReadReg(FPS7)  returns 0x303A702F (0000ms, 0750ms total)
T26BC 021:450 JLINK_ReadReg(FPS8)  returns 0x5A8880B0 (0000ms, 0750ms total)
T26BC 021:450 JLINK_ReadReg(FPS9)  returns 0x004436D9 (0000ms, 0750ms total)
T26BC 021:450 JLINK_ReadReg(FPS10)  returns 0x0E411D5F (0000ms, 0750ms total)
T26BC 021:450 JLINK_ReadReg(FPS11)  returns 0x2700D570 (0000ms, 0750ms total)
T26BC 021:450 JLINK_ReadReg(FPS12)  returns 0xB63BB06F (0000ms, 0750ms total)
T26BC 021:450 JLINK_ReadReg(FPS13)  returns 0x526F7343 (0000ms, 0750ms total)
T26BC 021:450 JLINK_ReadReg(FPS14)  returns 0x5545BD9F (0000ms, 0750ms total)
T26BC 021:450 JLINK_ReadReg(FPS15)  returns 0x7B4FB7AA (0000ms, 0750ms total)
T26BC 021:450 JLINK_ReadReg(FPS16)  returns 0x25346FDD (0000ms, 0750ms total)
T26BC 021:450 JLINK_ReadReg(FPS17)  returns 0x4A5ACE68 (0000ms, 0750ms total)
T26BC 021:450 JLINK_ReadReg(FPS18)  returns 0x79BBBE5E (0000ms, 0750ms total)
T26BC 021:450 JLINK_ReadReg(FPS19)  returns 0x057F7280 (0000ms, 0750ms total)
T26BC 021:450 JLINK_ReadReg(FPS20)  returns 0x9C1BA4FC (0000ms, 0750ms total)
T26BC 021:450 JLINK_ReadReg(FPS31)  returns 0x18AEB0A0 (0000ms, 0750ms total)
T26BC 021:450 JLINK_ReadReg(FPS7)  returns 0x303A702F (0000ms, 0750ms total)
T26BC 021:450 JLINK_ReadReg(FPS8)  returns 0x5A8880B0 (0000ms, 0750ms total)
T26BC 021:450 JLINK_ReadReg(FPS9)  returns 0x004436D9 (0001ms, 0751ms total)
T26BC 021:451 JLINK_ReadReg(FPS10)  returns 0x0E411D5F (0000ms, 0751ms total)
T26BC 021:451 JLINK_ReadReg(FPS11)  returns 0x2700D570 (0000ms, 0751ms total)
T26BC 021:451 JLINK_ReadReg(FPS12)  returns 0xB63BB06F (0000ms, 0751ms total)
T26BC 021:451 JLINK_ReadReg(FPS13)  returns 0x526F7343 (0000ms, 0751ms total)
T26BC 021:451 JLINK_ReadReg(FPS14)  returns 0x5545BD9F (0000ms, 0751ms total)
T26BC 021:451 JLINK_ReadReg(FPS15)  returns 0x7B4FB7AA (0000ms, 0751ms total)
T26BC 021:451 JLINK_ReadReg(FPS16)  returns 0x25346FDD (0000ms, 0751ms total)
T2B54 021:451 JLINK_ReadMem (0x20002724, 0x0004 Bytes, ...) -- CPU_ReadMem(4 bytes @ 0x20002724) - Data: ED 28 00 08  returns 0x00 (0002ms, 0753ms total)
T2B54 021:453 JLINK_ReadMem (0x20002718, 0x0004 Bytes, ...) -- CPU_ReadMem(4 bytes @ 0x20002718) - Data: 04 04 04 04  returns 0x00 (0001ms, 0754ms total)
T2B54 021:454 JLINK_ReadMem (0x2000271C, 0x0004 Bytes, ...) -- CPU_ReadMem(4 bytes @ 0x2000271C) - Data: 05 05 05 05  returns 0x00 (0001ms, 0755ms total)
T2B54 021:455 JLINK_ReadMem (0x20002720, 0x0004 Bytes, ...) -- CPU_ReadMem(4 bytes @ 0x20002720) - Data: 06 06 06 06  returns 0x00 (0001ms, 0756ms total)
T2B54 021:456 JLINK_ReadMem (0x20002734, 0x0004 Bytes, ...) -- CPU_ReadMem(4 bytes @ 0x20002734) - Data: 04 00 00 80  returns 0x00 (0000ms, 0756ms total)
T2B54 021:456 JLINK_ReadMem (0x20002728, 0x0004 Bytes, ...) -- CPU_ReadMem(4 bytes @ 0x20002728) - Data: 00 00 00 00  returns 0x00 (0000ms, 0756ms total)
T2B54 021:456 JLINK_ReadMem (0x2000272C, 0x0004 Bytes, ...) -- CPU_ReadMem(4 bytes @ 0x2000272C) - Data: 20 22 00 20  returns 0x00 (0002ms, 0758ms total)
T2B54 021:458 JLINK_ReadMem (0x20002730, 0x0004 Bytes, ...) -- CPU_ReadMem(4 bytes @ 0x20002730) - Data: 04 02 00 40  returns 0x00 (0001ms, 0759ms total)
T2B54 021:470 JLINK_ReadMemU32(0xE0001004, 0x0001 Items, ...) -- CPU_ReadMem(4 bytes @ 0xE0001004) - Data: 48 46 97 14  returns 0x01 (0001ms, 0760ms total)
T2B54 021:471 JLINK_ReadMem (0x08001BA2, 0x0002 Bytes, ...) -- CPU_ReadMem(64 bytes @ 0x08001B80) -- Updating DA cache (64 bytes @ 0x08001B80) -- Read from DA cache (2 bytes @ 0x08001BA2) - Data: FE E7  returns 0x00 (0001ms, 0761ms total)
T2B54 021:472 JLINK_ReadMem (0x08001BA4, 0x003C Bytes, ...) -- CPU_ReadMem(64 bytes @ 0x08001BC0) -- Updating DA cache (64 bytes @ 0x08001BC0) -- Read from DA cache (60 bytes @ 0x08001BA4) - Data: 10 B5 86 B0 18 21 68 46 FE F7 DA FB 0A 48 00 90 ...  returns 0x00 (0002ms, 0763ms total)
T26BC 023:339 JLINK_Step() -- Read from DA cache (2 bytes @ 0x08001BA2) -- Simulated  returns 0x00 (0001ms, 0764ms total)
T26BC 023:340 JLINK_ReadReg(R15 (PC))  returns 0x08001BA2 (0000ms, 0764ms total)
T26BC 023:340 JLINK_ReadReg(XPSR)  returns 0x01000000 (0000ms, 0764ms total)
T26BC 023:340 JLINK_ReadMem (0x08001BA0, 0x003C Bytes, ...) -- Read from DA cache (60 bytes @ 0x08001BA0) - Data: 00 BF FE E7 10 B5 86 B0 18 21 68 46 FE F7 DA FB ...  returns 0x00 (0000ms, 0764ms total)
T26BC 023:340 JLINK_ReadReg(R0)  returns 0x00000000 (0000ms, 0764ms total)
T26BC 023:340 JLINK_ReadReg(R1)  returns 0x08001BA1 (0000ms, 0764ms total)
T26BC 023:340 JLINK_ReadReg(R2)  returns 0x02020202 (0000ms, 0764ms total)
T26BC 023:340 JLINK_ReadReg(R3)  returns 0x03030303 (0000ms, 0764ms total)
T26BC 023:340 JLINK_ReadReg(R4)  returns 0x200010EC (0000ms, 0764ms total)
T26BC 023:340 JLINK_ReadReg(R5)  returns 0x00000001 (0000ms, 0764ms total)
T26BC 023:340 JLINK_ReadReg(R6)  returns 0x06060606 (0000ms, 0764ms total)
T26BC 023:340 JLINK_ReadReg(R7)  returns 0x07070707 (0000ms, 0764ms total)
T26BC 023:340 JLINK_ReadReg(R8)  returns 0x08080808 (0000ms, 0764ms total)
T26BC 023:340 JLINK_ReadReg(R9)  returns 0x09090909 (0000ms, 0764ms total)
T26BC 023:340 JLINK_ReadReg(R10)  returns 0x10101010 (0001ms, 0765ms total)
T26BC 023:341 JLINK_ReadReg(R11)  returns 0x11111111 (0000ms, 0765ms total)
T26BC 023:341 JLINK_ReadReg(R12)  returns 0x12121212 (0000ms, 0765ms total)
T26BC 023:341 JLINK_ReadReg(R13 (SP))  returns 0x20002718 (0000ms, 0765ms total)
T26BC 023:341 JLINK_ReadReg(R14)  returns 0x080028D7 (0000ms, 0765ms total)
T26BC 023:341 JLINK_ReadReg(R15 (PC))  returns 0x08001BA2 (0000ms, 0765ms total)
T26BC 023:341 JLINK_ReadReg(XPSR)  returns 0x01000000 (0000ms, 0765ms total)
T26BC 023:341 JLINK_ReadReg(MSP)  returns 0x200006C8 (0000ms, 0765ms total)
T26BC 023:341 JLINK_ReadReg(PSP)  returns 0x20002718 (0000ms, 0765ms total)
T26BC 023:341 JLINK_ReadReg(CFBP)  returns 0x02000000 (0000ms, 0765ms total)
T26BC 023:341 JLINK_ReadReg(FPSCR)  returns 0x00000000 (0000ms, 0765ms total)
T26BC 023:341 JLINK_ReadReg(FPS0)  returns 0xAF0BD180 (0000ms, 0765ms total)
T26BC 023:341 JLINK_ReadReg(FPS1)  returns 0x44CA0C5C (0000ms, 0765ms total)
T26BC 023:341 JLINK_ReadReg(FPS2)  returns 0xC146BB56 (0000ms, 0765ms total)
T26BC 023:341 JLINK_ReadReg(FPS3)  returns 0x3ABDD5D4 (0000ms, 0765ms total)
T26BC 023:341 JLINK_ReadReg(FPS4)  returns 0xA862833A (0000ms, 0765ms total)
T26BC 023:341 JLINK_ReadReg(FPS5)  returns 0xE99C4132 (0000ms, 0765ms total)
T26BC 023:341 JLINK_ReadReg(FPS6)  returns 0x4CA21A57 (0000ms, 0765ms total)
T26BC 023:341 JLINK_ReadReg(FPS7)  returns 0x303A702F (0000ms, 0765ms total)
T26BC 023:341 JLINK_ReadReg(FPS8)  returns 0x5A8880B0 (0000ms, 0765ms total)
T26BC 023:341 JLINK_ReadReg(FPS9)  returns 0x004436D9 (0000ms, 0765ms total)
T26BC 023:341 JLINK_ReadReg(FPS10)  returns 0x0E411D5F (0000ms, 0765ms total)
T26BC 023:341 JLINK_ReadReg(FPS11)  returns 0x2700D570 (0000ms, 0765ms total)
T26BC 023:341 JLINK_ReadReg(FPS12)  returns 0xB63BB06F (0000ms, 0765ms total)
T26BC 023:341 JLINK_ReadReg(FPS13)  returns 0x526F7343 (0000ms, 0765ms total)
T26BC 023:341 JLINK_ReadReg(FPS14)  returns 0x5545BD9F (0001ms, 0766ms total)
T26BC 023:342 JLINK_ReadReg(FPS15)  returns 0x7B4FB7AA (0000ms, 0766ms total)
T26BC 023:342 JLINK_ReadReg(FPS16)  returns 0x25346FDD (0000ms, 0766ms total)
T26BC 023:342 JLINK_ReadReg(FPS17)  returns 0x4A5ACE68 (0000ms, 0766ms total)
T26BC 023:342 JLINK_ReadReg(FPS18)  returns 0x79BBBE5E (0000ms, 0766ms total)
T26BC 023:342 JLINK_ReadReg(FPS19)  returns 0x057F7280 (0000ms, 0766ms total)
T26BC 023:342 JLINK_ReadReg(FPS20)  returns 0x9C1BA4FC (0000ms, 0766ms total)
T26BC 023:342 JLINK_ReadReg(FPS31)  returns 0x18AEB0A0 (0000ms, 0766ms total)
T26BC 023:342 JLINK_ReadReg(FPS7)  returns 0x303A702F (0000ms, 0766ms total)
T26BC 023:342 JLINK_ReadReg(FPS8)  returns 0x5A8880B0 (0000ms, 0766ms total)
T26BC 023:342 JLINK_ReadReg(FPS9)  returns 0x004436D9 (0000ms, 0766ms total)
T26BC 023:342 JLINK_ReadReg(FPS10)  returns 0x0E411D5F (0000ms, 0766ms total)
T26BC 023:342 JLINK_ReadReg(FPS11)  returns 0x2700D570 (0000ms, 0766ms total)
T26BC 023:342 JLINK_ReadReg(FPS12)  returns 0xB63BB06F (0000ms, 0766ms total)
T26BC 023:342 JLINK_ReadReg(FPS13)  returns 0x526F7343 (0000ms, 0766ms total)
T26BC 023:342 JLINK_ReadReg(FPS14)  returns 0x5545BD9F (0000ms, 0766ms total)
T26BC 023:342 JLINK_ReadReg(FPS15)  returns 0x7B4FB7AA (0000ms, 0766ms total)
T26BC 023:342 JLINK_ReadReg(FPS16)  returns 0x25346FDD (0000ms, 0766ms total)
T2B54 023:343 JLINK_ReadMem (0x20002724, 0x0004 Bytes, ...) -- CPU_ReadMem(4 bytes @ 0x20002724) - Data: ED 28 00 08  returns 0x00 (0001ms, 0767ms total)
T2B54 023:344 JLINK_ReadMem (0x20002718, 0x0004 Bytes, ...) -- CPU_ReadMem(4 bytes @ 0x20002718) - Data: 04 04 04 04  returns 0x00 (0001ms, 0768ms total)
T2B54 023:345 JLINK_ReadMem (0x2000271C, 0x0004 Bytes, ...) -- CPU_ReadMem(4 bytes @ 0x2000271C) - Data: 05 05 05 05  returns 0x00 (0001ms, 0769ms total)
T2B54 023:346 JLINK_ReadMem (0x20002720, 0x0004 Bytes, ...) -- CPU_ReadMem(4 bytes @ 0x20002720) - Data: 06 06 06 06  returns 0x00 (0001ms, 0770ms total)
T2B54 023:347 JLINK_ReadMem (0x20002734, 0x0004 Bytes, ...) -- CPU_ReadMem(4 bytes @ 0x20002734) - Data: 04 00 00 80  returns 0x00 (0001ms, 0771ms total)
T2B54 023:348 JLINK_ReadMem (0x20002728, 0x0004 Bytes, ...) -- CPU_ReadMem(4 bytes @ 0x20002728) - Data: 00 00 00 00  returns 0x00 (0001ms, 0772ms total)
T2B54 023:349 JLINK_ReadMem (0x2000272C, 0x0004 Bytes, ...) -- CPU_ReadMem(4 bytes @ 0x2000272C) - Data: 20 22 00 20  returns 0x00 (0000ms, 0772ms total)
T2B54 023:349 JLINK_ReadMem (0x20002730, 0x0004 Bytes, ...) -- CPU_ReadMem(4 bytes @ 0x20002730) - Data: 04 02 00 40  returns 0x00 (0001ms, 0773ms total)
T2B54 023:350 JLINK_ReadMemU32(0xE0001004, 0x0001 Items, ...) - Data: 48 46 97 14  returns 0x01 (0000ms, 0773ms total)
T26BC 023:874 JLINK_ReadMem (0x08001BA2, 0x0002 Bytes, ...) -- Read from DA cache (2 bytes @ 0x08001BA2) - Data: FE E7  returns 0x00 (0000ms, 0773ms total)
T26BC 023:874 JLINK_ReadMem (0x08001BA4, 0x003C Bytes, ...) -- Read from DA cache (60 bytes @ 0x08001BA4) - Data: 10 B5 86 B0 18 21 68 46 FE F7 DA FB 0A 48 00 90 ...  returns 0x00 (0000ms, 0773ms total)
T26BC 023:874 JLINK_Step() -- Read from DA cache (2 bytes @ 0x08001BA2) -- Simulated  returns 0x00 (0000ms, 0773ms total)
T26BC 023:875 JLINK_ReadReg(R15 (PC))  returns 0x08001BA2 (0000ms, 0773ms total)
T26BC 023:875 JLINK_ReadReg(XPSR)  returns 0x01000000 (0000ms, 0773ms total)
T26BC 023:875 JLINK_ReadMem (0x08001BA0, 0x003C Bytes, ...) -- Read from DA cache (60 bytes @ 0x08001BA0) - Data: 00 BF FE E7 10 B5 86 B0 18 21 68 46 FE F7 DA FB ...  returns 0x00 (0000ms, 0773ms total)
T26BC 023:875 JLINK_ReadReg(R0)  returns 0x00000000 (0000ms, 0773ms total)
T26BC 023:875 JLINK_ReadReg(R1)  returns 0x08001BA1 (0000ms, 0773ms total)
T26BC 023:875 JLINK_ReadReg(R2)  returns 0x02020202 (0000ms, 0773ms total)
T26BC 023:875 JLINK_ReadReg(R3)  returns 0x03030303 (0000ms, 0773ms total)
T26BC 023:875 JLINK_ReadReg(R4)  returns 0x200010EC (0000ms, 0773ms total)
T26BC 023:875 JLINK_ReadReg(R5)  returns 0x00000001 (0000ms, 0773ms total)
T26BC 023:875 JLINK_ReadReg(R6)  returns 0x06060606 (0000ms, 0773ms total)
T26BC 023:875 JLINK_ReadReg(R7)  returns 0x07070707 (0000ms, 0773ms total)
T26BC 023:875 JLINK_ReadReg(R8)  returns 0x08080808 (0000ms, 0773ms total)
T26BC 023:875 JLINK_ReadReg(R9)  returns 0x09090909 (0000ms, 0773ms total)
T26BC 023:875 JLINK_ReadReg(R10)  returns 0x10101010 (0000ms, 0773ms total)
T26BC 023:875 JLINK_ReadReg(R11)  returns 0x11111111 (0000ms, 0773ms total)
T26BC 023:875 JLINK_ReadReg(R12)  returns 0x12121212 (0000ms, 0773ms total)
T26BC 023:875 JLINK_ReadReg(R13 (SP))  returns 0x20002718 (0000ms, 0773ms total)
T26BC 023:875 JLINK_ReadReg(R14)  returns 0x080028D7 (0000ms, 0773ms total)
T26BC 023:875 JLINK_ReadReg(R15 (PC))  returns 0x08001BA2 (0000ms, 0773ms total)
T26BC 023:875 JLINK_ReadReg(XPSR)  returns 0x01000000 (0000ms, 0773ms total)
T26BC 023:875 JLINK_ReadReg(MSP)  returns 0x200006C8 (0000ms, 0773ms total)
T26BC 023:875 JLINK_ReadReg(PSP)  returns 0x20002718 (0000ms, 0773ms total)
T26BC 023:875 JLINK_ReadReg(CFBP)  returns 0x02000000 (0000ms, 0773ms total)
T26BC 023:875 JLINK_ReadReg(FPSCR)  returns 0x00000000 (0001ms, 0774ms total)
T26BC 023:876 JLINK_ReadReg(FPS0)  returns 0xAF0BD180 (0000ms, 0774ms total)
T26BC 023:876 JLINK_ReadReg(FPS1)  returns 0x44CA0C5C (0000ms, 0774ms total)
T26BC 023:876 JLINK_ReadReg(FPS2)  returns 0xC146BB56 (0000ms, 0774ms total)
T26BC 023:876 JLINK_ReadReg(FPS3)  returns 0x3ABDD5D4 (0000ms, 0774ms total)
T26BC 023:876 JLINK_ReadReg(FPS4)  returns 0xA862833A (0000ms, 0774ms total)
T26BC 023:876 JLINK_ReadReg(FPS5)  returns 0xE99C4132 (0000ms, 0774ms total)
T26BC 023:876 JLINK_ReadReg(FPS6)  returns 0x4CA21A57 (0000ms, 0774ms total)
T26BC 023:876 JLINK_ReadReg(FPS7)  returns 0x303A702F (0000ms, 0774ms total)
T26BC 023:876 JLINK_ReadReg(FPS8)  returns 0x5A8880B0 (0000ms, 0774ms total)
T26BC 023:876 JLINK_ReadReg(FPS9)  returns 0x004436D9 (0000ms, 0774ms total)
T26BC 023:876 JLINK_ReadReg(FPS10)  returns 0x0E411D5F (0000ms, 0774ms total)
T26BC 023:876 JLINK_ReadReg(FPS11)  returns 0x2700D570 (0000ms, 0774ms total)
T26BC 023:876 JLINK_ReadReg(FPS12)  returns 0xB63BB06F (0000ms, 0774ms total)
T26BC 023:876 JLINK_ReadReg(FPS13)  returns 0x526F7343 (0000ms, 0774ms total)
T26BC 023:876 JLINK_ReadReg(FPS14)  returns 0x5545BD9F (0000ms, 0774ms total)
T26BC 023:876 JLINK_ReadReg(FPS15)  returns 0x7B4FB7AA (0000ms, 0774ms total)
T26BC 023:876 JLINK_ReadReg(FPS16)  returns 0x25346FDD (0000ms, 0774ms total)
T26BC 023:876 JLINK_ReadReg(FPS17)  returns 0x4A5ACE68 (0000ms, 0774ms total)
T26BC 023:876 JLINK_ReadReg(FPS18)  returns 0x79BBBE5E (0000ms, 0774ms total)
T26BC 023:876 JLINK_ReadReg(FPS19)  returns 0x057F7280 (0000ms, 0774ms total)
T26BC 023:876 JLINK_ReadReg(FPS20)  returns 0x9C1BA4FC (0000ms, 0774ms total)
T26BC 023:876 JLINK_ReadReg(FPS31)  returns 0x18AEB0A0 (0000ms, 0774ms total)
T26BC 023:876 JLINK_ReadReg(FPS7)  returns 0x303A702F (0000ms, 0774ms total)
T26BC 023:876 JLINK_ReadReg(FPS8)  returns 0x5A8880B0 (0000ms, 0774ms total)
T26BC 023:876 JLINK_ReadReg(FPS9)  returns 0x004436D9 (0000ms, 0774ms total)
T26BC 023:876 JLINK_ReadReg(FPS10)  returns 0x0E411D5F (0001ms, 0775ms total)
T26BC 023:877 JLINK_ReadReg(FPS11)  returns 0x2700D570 (0000ms, 0775ms total)
T26BC 023:877 JLINK_ReadReg(FPS12)  returns 0xB63BB06F (0000ms, 0775ms total)
T26BC 023:877 JLINK_ReadReg(FPS13)  returns 0x526F7343 (0000ms, 0775ms total)
T26BC 023:877 JLINK_ReadReg(FPS14)  returns 0x5545BD9F (0000ms, 0775ms total)
T26BC 023:877 JLINK_ReadReg(FPS15)  returns 0x7B4FB7AA (0000ms, 0775ms total)
T26BC 023:877 JLINK_ReadReg(FPS16)  returns 0x25346FDD (0000ms, 0775ms total)
T2B54 023:878 JLINK_ReadMem (0x20002724, 0x0004 Bytes, ...) -- CPU_ReadMem(4 bytes @ 0x20002724) - Data: ED 28 00 08  returns 0x00 (0001ms, 0776ms total)
T2B54 023:879 JLINK_ReadMem (0x20002718, 0x0004 Bytes, ...) -- CPU_ReadMem(4 bytes @ 0x20002718) - Data: 04 04 04 04  returns 0x00 (0002ms, 0778ms total)
T2B54 023:881 JLINK_ReadMem (0x2000271C, 0x0004 Bytes, ...) -- CPU_ReadMem(4 bytes @ 0x2000271C) - Data: 05 05 05 05  returns 0x00 (0001ms, 0779ms total)
T2B54 023:882 JLINK_ReadMem (0x20002720, 0x0004 Bytes, ...) -- CPU_ReadMem(4 bytes @ 0x20002720) - Data: 06 06 06 06  returns 0x00 (0001ms, 0780ms total)
T2B54 023:883 JLINK_ReadMem (0x20002734, 0x0004 Bytes, ...) -- CPU_ReadMem(4 bytes @ 0x20002734) - Data: 04 00 00 80  returns 0x00 (0000ms, 0780ms total)
T2B54 023:883 JLINK_ReadMem (0x20002728, 0x0004 Bytes, ...) -- CPU_ReadMem(4 bytes @ 0x20002728) - Data: 00 00 00 00  returns 0x00 (0001ms, 0781ms total)
T2B54 023:884 JLINK_ReadMem (0x2000272C, 0x0004 Bytes, ...) -- CPU_ReadMem(4 bytes @ 0x2000272C) - Data: 20 22 00 20  returns 0x00 (0001ms, 0782ms total)
T2B54 023:885 JLINK_ReadMem (0x20002730, 0x0004 Bytes, ...) -- CPU_ReadMem(4 bytes @ 0x20002730) - Data: 04 02 00 40  returns 0x00 (0000ms, 0782ms total)
T2B54 023:885 JLINK_ReadMemU32(0xE0001004, 0x0001 Items, ...) - Data: 48 46 97 14  returns 0x01 (0000ms, 0782ms total)
T26BC 024:359 JLINK_ReadMem (0x08001BA2, 0x0002 Bytes, ...) -- Read from DA cache (2 bytes @ 0x08001BA2) - Data: FE E7  returns 0x00 (0001ms, 0783ms total)
T26BC 024:360 JLINK_ReadMem (0x08001BA4, 0x003C Bytes, ...) -- Read from DA cache (60 bytes @ 0x08001BA4) - Data: 10 B5 86 B0 18 21 68 46 FE F7 DA FB 0A 48 00 90 ...  returns 0x00 (0000ms, 0783ms total)
T26BC 024:360 JLINK_Step() -- Read from DA cache (2 bytes @ 0x08001BA2) -- Simulated  returns 0x00 (0000ms, 0783ms total)
T26BC 024:360 JLINK_ReadReg(R15 (PC))  returns 0x08001BA2 (0000ms, 0783ms total)
T26BC 024:360 JLINK_ReadReg(XPSR)  returns 0x01000000 (0000ms, 0783ms total)
T26BC 024:360 JLINK_ReadMem (0x08001BA0, 0x003C Bytes, ...) -- Read from DA cache (60 bytes @ 0x08001BA0) - Data: 00 BF FE E7 10 B5 86 B0 18 21 68 46 FE F7 DA FB ...  returns 0x00 (0000ms, 0783ms total)
T26BC 024:360 JLINK_ReadReg(R0)  returns 0x00000000 (0000ms, 0783ms total)
T26BC 024:360 JLINK_ReadReg(R1)  returns 0x08001BA1 (0000ms, 0783ms total)
T26BC 024:360 JLINK_ReadReg(R2)  returns 0x02020202 (0000ms, 0783ms total)
T26BC 024:360 JLINK_ReadReg(R3)  returns 0x03030303 (0000ms, 0783ms total)
T26BC 024:360 JLINK_ReadReg(R4)  returns 0x200010EC (0000ms, 0783ms total)
T26BC 024:360 JLINK_ReadReg(R5)  returns 0x00000001 (0000ms, 0783ms total)
T26BC 024:360 JLINK_ReadReg(R6)  returns 0x06060606 (0000ms, 0783ms total)
T26BC 024:360 JLINK_ReadReg(R7)  returns 0x07070707 (0001ms, 0784ms total)
T26BC 024:361 JLINK_ReadReg(R8)  returns 0x08080808 (0000ms, 0784ms total)
T26BC 024:361 JLINK_ReadReg(R9)  returns 0x09090909 (0000ms, 0784ms total)
T26BC 024:361 JLINK_ReadReg(R10)  returns 0x10101010 (0000ms, 0784ms total)
T26BC 024:361 JLINK_ReadReg(R11)  returns 0x11111111 (0000ms, 0784ms total)
T26BC 024:361 JLINK_ReadReg(R12)  returns 0x12121212 (0000ms, 0784ms total)
T26BC 024:361 JLINK_ReadReg(R13 (SP))  returns 0x20002718 (0000ms, 0784ms total)
T26BC 024:361 JLINK_ReadReg(R14)  returns 0x080028D7 (0000ms, 0784ms total)
T26BC 024:361 JLINK_ReadReg(R15 (PC))  returns 0x08001BA2 (0000ms, 0784ms total)
T26BC 024:361 JLINK_ReadReg(XPSR)  returns 0x01000000 (0000ms, 0784ms total)
T26BC 024:361 JLINK_ReadReg(MSP)  returns 0x200006C8 (0000ms, 0784ms total)
T26BC 024:361 JLINK_ReadReg(PSP)  returns 0x20002718 (0000ms, 0784ms total)
T26BC 024:361 JLINK_ReadReg(CFBP)  returns 0x02000000 (0000ms, 0784ms total)
T26BC 024:361 JLINK_ReadReg(FPSCR)  returns 0x00000000 (0000ms, 0784ms total)
T26BC 024:361 JLINK_ReadReg(FPS0)  returns 0xAF0BD180 (0000ms, 0784ms total)
T26BC 024:361 JLINK_ReadReg(FPS1)  returns 0x44CA0C5C (0000ms, 0784ms total)
T26BC 024:361 JLINK_ReadReg(FPS2)  returns 0xC146BB56 (0000ms, 0784ms total)
T26BC 024:361 JLINK_ReadReg(FPS3)  returns 0x3ABDD5D4 (0000ms, 0784ms total)
T26BC 024:361 JLINK_ReadReg(FPS4)  returns 0xA862833A (0000ms, 0784ms total)
T26BC 024:361 JLINK_ReadReg(FPS5)  returns 0xE99C4132 (0000ms, 0784ms total)
T26BC 024:361 JLINK_ReadReg(FPS6)  returns 0x4CA21A57 (0000ms, 0784ms total)
T26BC 024:361 JLINK_ReadReg(FPS7)  returns 0x303A702F (0000ms, 0784ms total)
T26BC 024:361 JLINK_ReadReg(FPS8)  returns 0x5A8880B0 (0000ms, 0784ms total)
T26BC 024:361 JLINK_ReadReg(FPS9)  returns 0x004436D9 (0000ms, 0784ms total)
T26BC 024:361 JLINK_ReadReg(FPS10)  returns 0x0E411D5F (0000ms, 0784ms total)
T26BC 024:361 JLINK_ReadReg(FPS11)  returns 0x2700D570 (0000ms, 0784ms total)
T26BC 024:361 JLINK_ReadReg(FPS12)  returns 0xB63BB06F (0000ms, 0784ms total)
T26BC 024:362 JLINK_ReadReg(FPS13)  returns 0x526F7343 (0000ms, 0785ms total)
T26BC 024:362 JLINK_ReadReg(FPS14)  returns 0x5545BD9F (0000ms, 0785ms total)
T26BC 024:362 JLINK_ReadReg(FPS15)  returns 0x7B4FB7AA (0000ms, 0785ms total)
T26BC 024:362 JLINK_ReadReg(FPS16)  returns 0x25346FDD (0000ms, 0785ms total)
T26BC 024:362 JLINK_ReadReg(FPS17)  returns 0x4A5ACE68 (0000ms, 0785ms total)
T26BC 024:362 JLINK_ReadReg(FPS18)  returns 0x79BBBE5E (0000ms, 0785ms total)
T26BC 024:362 JLINK_ReadReg(FPS19)  returns 0x057F7280 (0000ms, 0785ms total)
T26BC 024:362 JLINK_ReadReg(FPS20)  returns 0x9C1BA4FC (0000ms, 0785ms total)
T26BC 024:362 JLINK_ReadReg(FPS31)  returns 0x18AEB0A0 (0000ms, 0785ms total)
T26BC 024:362 JLINK_ReadReg(FPS7)  returns 0x303A702F (0000ms, 0785ms total)
T26BC 024:362 JLINK_ReadReg(FPS8)  returns 0x5A8880B0 (0000ms, 0785ms total)
T26BC 024:362 JLINK_ReadReg(FPS9)  returns 0x004436D9 (0000ms, 0785ms total)
T26BC 024:362 JLINK_ReadReg(FPS10)  returns 0x0E411D5F (0000ms, 0785ms total)
T26BC 024:362 JLINK_ReadReg(FPS11)  returns 0x2700D570 (0000ms, 0785ms total)
T26BC 024:362 JLINK_ReadReg(FPS12)  returns 0xB63BB06F (0000ms, 0785ms total)
T26BC 024:362 JLINK_ReadReg(FPS13)  returns 0x526F7343 (0000ms, 0785ms total)
T26BC 024:362 JLINK_ReadReg(FPS14)  returns 0x5545BD9F (0000ms, 0785ms total)
T26BC 024:362 JLINK_ReadReg(FPS15)  returns 0x7B4FB7AA (0000ms, 0785ms total)
T26BC 024:362 JLINK_ReadReg(FPS16)  returns 0x25346FDD (0000ms, 0785ms total)
T2B54 024:365 JLINK_ReadMem (0x20002724, 0x0004 Bytes, ...) -- CPU_ReadMem(4 bytes @ 0x20002724) - Data: ED 28 00 08  returns 0x00 (0001ms, 0786ms total)
T2B54 024:366 JLINK_ReadMem (0x20002718, 0x0004 Bytes, ...) -- CPU_ReadMem(4 bytes @ 0x20002718) - Data: 04 04 04 04  returns 0x00 (0001ms, 0787ms total)
T2B54 024:367 JLINK_ReadMem (0x2000271C, 0x0004 Bytes, ...) -- CPU_ReadMem(4 bytes @ 0x2000271C) - Data: 05 05 05 05  returns 0x00 (0000ms, 0787ms total)
T2B54 024:367 JLINK_ReadMem (0x20002720, 0x0004 Bytes, ...) -- CPU_ReadMem(4 bytes @ 0x20002720) - Data: 06 06 06 06  returns 0x00 (0002ms, 0789ms total)
T2B54 024:369 JLINK_ReadMem (0x20002734, 0x0004 Bytes, ...) -- CPU_ReadMem(4 bytes @ 0x20002734) - Data: 04 00 00 80  returns 0x00 (0001ms, 0790ms total)
T2B54 024:370 JLINK_ReadMem (0x20002728, 0x0004 Bytes, ...) -- CPU_ReadMem(4 bytes @ 0x20002728) - Data: 00 00 00 00  returns 0x00 (0001ms, 0791ms total)
T2B54 024:371 JLINK_ReadMem (0x2000272C, 0x0004 Bytes, ...) -- CPU_ReadMem(4 bytes @ 0x2000272C) - Data: 20 22 00 20  returns 0x00 (0001ms, 0792ms total)
T2B54 024:372 JLINK_ReadMem (0x20002730, 0x0004 Bytes, ...) -- CPU_ReadMem(4 bytes @ 0x20002730) - Data: 04 02 00 40  returns 0x00 (0000ms, 0792ms total)
T2B54 024:372 JLINK_ReadMemU32(0xE0001004, 0x0001 Items, ...) - Data: 48 46 97 14  returns 0x01 (0000ms, 0792ms total)
T26BC 024:936 JLINK_ReadMem (0x08001BA2, 0x0002 Bytes, ...) -- Read from DA cache (2 bytes @ 0x08001BA2) - Data: FE E7  returns 0x00 (0000ms, 0792ms total)
T26BC 024:936 JLINK_ReadMem (0x08001BA4, 0x003C Bytes, ...) -- Read from DA cache (60 bytes @ 0x08001BA4) - Data: 10 B5 86 B0 18 21 68 46 FE F7 DA FB 0A 48 00 90 ...  returns 0x00 (0000ms, 0792ms total)
T26BC 024:936 JLINK_Step() -- Read from DA cache (2 bytes @ 0x08001BA2) -- Simulated  returns 0x00 (0001ms, 0793ms total)
T26BC 024:937 JLINK_ReadReg(R15 (PC))  returns 0x08001BA2 (0000ms, 0793ms total)
T26BC 024:937 JLINK_ReadReg(XPSR)  returns 0x01000000 (0000ms, 0793ms total)
T26BC 024:937 JLINK_ReadMem (0x08001BA0, 0x003C Bytes, ...) -- Read from DA cache (60 bytes @ 0x08001BA0) - Data: 00 BF FE E7 10 B5 86 B0 18 21 68 46 FE F7 DA FB ...  returns 0x00 (0000ms, 0793ms total)
T26BC 024:937 JLINK_ReadReg(R0)  returns 0x00000000 (0000ms, 0793ms total)
T26BC 024:937 JLINK_ReadReg(R1)  returns 0x08001BA1 (0000ms, 0793ms total)
T26BC 024:937 JLINK_ReadReg(R2)  returns 0x02020202 (0000ms, 0793ms total)
T26BC 024:937 JLINK_ReadReg(R3)  returns 0x03030303 (0000ms, 0793ms total)
T26BC 024:937 JLINK_ReadReg(R4)  returns 0x200010EC (0001ms, 0794ms total)
T26BC 024:938 JLINK_ReadReg(R5)  returns 0x00000001 (0000ms, 0794ms total)
T26BC 024:938 JLINK_ReadReg(R6)  returns 0x06060606 (0000ms, 0794ms total)
T26BC 024:938 JLINK_ReadReg(R7)  returns 0x07070707 (0000ms, 0794ms total)
T26BC 024:938 JLINK_ReadReg(R8)  returns 0x08080808 (0000ms, 0794ms total)
T26BC 024:938 JLINK_ReadReg(R9)  returns 0x09090909 (0000ms, 0794ms total)
